
T1094 000:282 SEGGER J-Link V4.96l Log File (0001ms, 0263ms total)
T1094 000:282 DLL Compiled: Feb 25 2015 10:24:11 (0001ms, 0263ms total)
T1094 000:282 Logging started @ 2015-11-04 23:57 (0001ms, 0263ms total)
T1094 000:283 JLINK_SetWarnOutHandler(...) (0000ms, 0263ms total)
T1094 000:283 JLINK_OpenEx(...)
Firmware: J-Link ARM V8 compiled Nov 28 2014 13:44:46
Hardware: V8.00
S/N: 286370559
Feature(s): RDI,FlashDL,FlashBP,JFlash  returns O.K. (0259ms, 0522ms total)
T1094 000:542 JLINK_SetErrorOutHandler(...) (0000ms, 0522ms total)
T1094 000:542 JLINK_ExecCommand("ProjectFile = "D:\MyProject\2015ElmoCoProject\App_Code\FRTOS_Beta_f103\Project\JLinkSettings.ini"", ...)  returns 0x00 (0000ms, 0522ms total)
T1094 000:542 JLINK_ExecCommand("Device = STM32F103RB", ...)Device "STM32F103RB" selected.  returns 0x00 (0000ms, 0522ms total)
T1094 000:542 JLINK_ExecCommand("DisableConnectionTimeout", ...)  returns 0x01 (0000ms, 0522ms total)
T1094 000:542 JLINK_GetHardwareVersion()  returns 0x13880 (0000ms, 0522ms total)
T1094 000:542 JLINK_GetDLLVersion()  returns 49612 (0000ms, 0522ms total)
T1094 000:542 JLINK_GetFirmwareString(...) (0000ms, 0522ms total)
T1094 000:542 JLINK_GetDLLVersion()  returns 49612 (0000ms, 0522ms total)
T1094 000:542 JLINK_GetCompileDateTime() (0000ms, 0522ms total)
T1094 000:542 JLINK_GetFirmwareString(...) (0000ms, 0522ms total)
T1094 000:543 JLINK_GetHardwareVersion()  returns 0x13880 (0000ms, 0522ms total)
T1094 000:543 JLINK_TIF_Select(JLINKARM_TIF_JTAG)  returns 0x00 (0002ms, 0524ms total)
T1094 000:545 JLINK_SetSpeed(50000) (0000ms, 0524ms total)
T1094 000:545 JLINK_GetIdData(...) >0x2F8 JTAG>TotalIRLen = 9, IRPrint = 0x0011 >0x30 JTAG> >0x210 JTAG> >0x40 JTAG> >0x40 JTAG> >0x40 JTAG> >0x30 JTAG> >0x40 JTAG> >0x40 JTAG> >0x40 JTAG> >0x40 JTAG> >0x40 JTAG> >0x40 JTAG> >0x40 JTAG> >0x40 JTAG> >0x2F8 JTAG>TotalIRLen = 9, IRPrint = 0x0011 >0x30 JTAG> >0x210 JTAG> >0x70 JTAG> >0x40 JTAG> >0x40 JTAG> >0x40 JTAG> >0x50 JTAG> >0x80 JTAG> >0x40 JTAG> >0x30 JTAG> >0x40 JTAG> >0x40 JTAG> >0x30 JTAG> >0x40 JTAG> >0x50 JTAG>
Found Cortex-M3 r1p1, Little endian. -- CPU_WriteMem(4 bytes @ 0xE0002000) -- CPU_ReadMem(4 bytes @ 0xE000EDF0) -- CPU_ReadMem(4 bytes @ 0xE0002000)FPUnit: 6 code (BP) slots and 2 literal slots -- CPU_ReadMem(4 bytes @ 0xE000EDFC) -- CPU_ReadMem(4 bytes @ 0xE0001000) -- CPU_WriteMem(4 bytes @ 0xE0001000) -- CPU_ReadMem(4 bytes @ 0xE000ED88) -- CPU_WriteMem(4 bytes @ 0xE000ED88) -- CPU_ReadMem(4 bytes @ 0xE000ED88) -- CPU_WriteMem(4 bytes @ 0xE000ED88) -- CPU_ReadMem(4 bytes @ 0xE00FF010)TPIU fitted.
 -- CPU_ReadMem(4 bytes @ 0xE00FF014)ETM fitted. -- CPU_ReadMem(4 bytes @ 0xE00FF018) ScanLen=9 NumDevices=2 aId[0]=0x3BA00477 aIrRead[0]=0 aScanLen[0]=0 aScanRead[0]=0 (0026ms, 0550ms total)
T1094 000:571 JLINK_JTAG_GetDeviceID(DeviceIndex = 0)  returns 0x3BA00477 (0000ms, 0550ms total)
T1094 000:571 JLINK_JTAG_GetDeviceInfo(DeviceIndex = 0)  returns 0x00 (0000ms, 0550ms total)
T1094 000:571 JLINK_JTAG_GetDeviceID(DeviceIndex = 1)  returns 0x6414041 (0000ms, 0550ms total)
T1094 000:571 JLINK_JTAG_GetDeviceInfo(DeviceIndex = 1)  returns 0x00 (0000ms, 0550ms total)
T1094 000:571 JLINK_GetDLLVersion()  returns 49612 (0000ms, 0550ms total)
T1094 000:571 JLINK_CORE_GetFound()  returns 0x30000FF (0000ms, 0550ms total)
T1094 000:571 JLINK_GetDebugInfo(0x100) -- Value=0xE00FF003  returns 0x00 (0000ms, 0550ms total)
T1094 000:571 JLINK_ReadMem (0xE00FF000, 0x0020 Bytes, ...) -- CPU is running -- CPU_ReadMem(32 bytes @ 0xE00FF000) - Data: 03 F0 F0 FF 03 20 F0 FF 03 30 F0 FF 03 10 F0 FF ...  returns 0x00 (0000ms, 0550ms total)
T1094 000:571 JLINK_ReadMem (0xE000EFF0, 0x0010 Bytes, ...) -- CPU is running -- CPU_ReadMem(16 bytes @ 0xE000EFF0) - Data: 0D 00 00 00 E0 00 00 00 05 00 00 00 B1 00 00 00  returns 0x00 (0001ms, 0551ms total)
T1094 000:572 JLINK_ReadMem (0xE000EFD0, 0x0020 Bytes, ...) -- CPU is running -- CPU_ReadMem(32 bytes @ 0xE000EFD0) - Data: 04 00 00 00 00 00 00 00 00 00 00 00 00 00 00 00 ...  returns 0x00 (0001ms, 0552ms total)
T1094 000:573 JLINK_ReadMem (0xE0001FF0, 0x0010 Bytes, ...) -- CPU is running -- CPU_ReadMem(16 bytes @ 0xE0001FF0) - Data: 0D 00 00 00 E0 00 00 00 05 00 00 00 B1 00 00 00  returns 0x00 (0000ms, 0552ms total)
T1094 000:573 JLINK_ReadMem (0xE0001FD0, 0x0020 Bytes, ...) -- CPU is running -- CPU_ReadMem(32 bytes @ 0xE0001FD0) - Data: 04 00 00 00 00 00 00 00 00 00 00 00 00 00 00 00 ...  returns 0x00 (0001ms, 0553ms total)
T1094 000:574 JLINK_ReadMem (0xE0002FF0, 0x0010 Bytes, ...) -- CPU is running -- CPU_ReadMem(16 bytes @ 0xE0002FF0) - Data: 0D 00 00 00 E0 00 00 00 05 00 00 00 B1 00 00 00  returns 0x00 (0000ms, 0553ms total)
T1094 000:574 JLINK_ReadMem (0xE0002FD0, 0x0020 Bytes, ...) -- CPU is running -- CPU_ReadMem(32 bytes @ 0xE0002FD0) - Data: 04 00 00 00 00 00 00 00 00 00 00 00 00 00 00 00 ...  returns 0x00 (0001ms, 0554ms total)
T1094 000:575 JLINK_ReadMem (0xE0000FF0, 0x0010 Bytes, ...) -- CPU is running -- CPU_ReadMem(16 bytes @ 0xE0000FF0) - Data: 0D 00 00 00 E0 00 00 00 05 00 00 00 B1 00 00 00  returns 0x00 (0000ms, 0554ms total)
T1094 000:575 JLINK_ReadMem (0xE0000FD0, 0x0020 Bytes, ...) -- CPU is running -- CPU_ReadMem(32 bytes @ 0xE0000FD0) - Data: 04 00 00 00 00 00 00 00 00 00 00 00 00 00 00 00 ...  returns 0x00 (0001ms, 0555ms total)
T1094 000:576 JLINK_ReadMem (0xE0040FF0, 0x0010 Bytes, ...) -- CPU is running -- CPU_ReadMem(16 bytes @ 0xE0040FF0) - Data: 0D 00 00 00 90 00 00 00 05 00 00 00 B1 00 00 00  returns 0x00 (0001ms, 0556ms total)
T1094 000:577 JLINK_ReadMem (0xE0040FD0, 0x0020 Bytes, ...) -- CPU is running -- CPU_ReadMem(32 bytes @ 0xE0040FD0) - Data: 04 00 00 00 00 00 00 00 00 00 00 00 00 00 00 00 ...  returns 0x00 (0000ms, 0556ms total)
T1094 000:577 JLINK_ReadMem (0xE0041FF0, 0x0010 Bytes, ...) -- CPU is running -- CPU_ReadMem(16 bytes @ 0xE0041FF0) - Data: 0D 00 00 00 90 00 00 00 05 00 00 00 B1 00 00 00  returns 0x00 (0001ms, 0557ms total)
T1094 000:578 JLINK_ReadMem (0xE0041FD0, 0x0020 Bytes, ...) -- CPU is running -- CPU_ReadMem(32 bytes @ 0xE0041FD0) - Data: 04 00 00 00 00 00 00 00 00 00 00 00 00 00 00 00 ...  returns 0x00 (0001ms, 0558ms total)
T1094 000:579 JLINK_ReadMemU32(0xE000ED00, 0x0001 Items, ...) -- CPU is running -- CPU_ReadMem(4 bytes @ 0xE000ED00) - Data: 31 C2 1F 41  returns 0x01 (0000ms, 0558ms total)
T1094 000:579 JLINK_SetResetType(JLINKARM_RESET_TYPE_NORMAL)  returns JLINKARM_RESET_TYPE_NORMAL (0000ms, 0558ms total)
T1094 000:579 JLINK_Reset() -- CPU is running -- CPU_WriteMem(4 bytes @ 0xE000EDF0) -- CPU is running -- CPU_WriteMem(4 bytes @ 0xE000EDFC) -- CPU is running -- CPU_WriteMem(4 bytes @ 0xE000ED0C) -- CPU is running -- CPU_ReadMem(4 bytes @ 0xE000EDF0) -- CPU is running -- CPU_ReadMem(4 bytes @ 0xE000EDF0) -- CPU is running -- CPU_WriteMem(4 bytes @ 0xE000EDF0) -- CPU is running -- CPU_WriteMem(4 bytes @ 0xE000EDFC) -- CPU is running -- CPU_ReadMem(4 bytes @ 0xE000EDF0) >0x80 JTAG> >0x40 JTAG> >0x30 JTAG>
 >0x40 JTAG> >0x50 JTAG> >0x40 JTAG> -- CPU_WriteMem(4 bytes @ 0xE000EDFC) -- CPU_WriteMem(4 bytes @ 0xE0001028) -- CPU_WriteMem(4 bytes @ 0xE0001038) -- CPU_WriteMem(4 bytes @ 0xE0001048) -- CPU_WriteMem(4 bytes @ 0xE0001058) -- CPU_WriteMem(4 bytes @ 0xE0002000) -- CPU_ReadMem(4 bytes @ 0xE000EDFC) -- CPU_ReadMem(4 bytes @ 0xE0001000) (0027ms, 0585ms total)
T1094 000:606 JLINK_ReadReg(R15 (PC))  returns 0x080001A4 (0000ms, 0585ms total)
T1094 000:606 JLINK_ReadReg(XPSR)  returns 0x01000000 (0000ms, 0585ms total)
T1094 000:606 JLINK_Halt()  returns 0x00 (0000ms, 0585ms total)
T1094 000:606 JLINK_IsHalted()  returns TRUE (0000ms, 0585ms total)
T1094 000:606 JLINK_ReadMemU32(0xE000EDF0, 0x0001 Items, ...) -- CPU_ReadMem(4 bytes @ 0xE000EDF0) - Data: 03 00 03 00  returns 0x01 (0000ms, 0585ms total)
T1094 000:606 JLINK_WriteU32(0xE000EDF0, 0xA05F0003) -- CPU_WriteMem(4 bytes @ 0xE000EDF0)  returns 0x00 (0001ms, 0586ms total)
T1094 000:607 JLINK_WriteU32(0xE000EDFC, 0x01000000) -- CPU_WriteMem(4 bytes @ 0xE000EDFC)  returns 0x00 (0000ms, 0586ms total)
T1094 000:607 JLINK_GetHWStatus(...)  returns 0x00 (0001ms, 0587ms total)
T1094 000:608 JLINK_GetNumBPUnits(Type = 0xFFFFFF00)  returns 0x06 (0000ms, 0587ms total)
T1094 000:608 JLINK_GetNumBPUnits(Type = 0xF0)  returns 0x2000 (0000ms, 0587ms total)
T1094 000:608 JLINK_GetNumWPUnits()  returns 0x04 (0000ms, 0587ms total)
T1094 000:608 JLINK_GetSpeed()  returns 0x2EE0 (0000ms, 0587ms total)
T1094 000:608 JLINK_ReadMemU32(0xE000E004, 0x0001 Items, ...) -- CPU_ReadMem(4 bytes @ 0xE000E004) - Data: 01 00 00 00  returns 0x01 (0001ms, 0588ms total)
T1094 000:609 JLINK_ReadMemU32(0xE000E004, 0x0001 Items, ...) -- CPU_ReadMem(4 bytes @ 0xE000E004) - Data: 01 00 00 00  returns 0x01 (0000ms, 0588ms total)
T1094 000:609 JLINK_WriteMem(0xE0001000, 0x001C Bytes, ...) - Data: 01 00 00 00 00 00 00 00 00 00 00 00 00 00 00 00 ... -- CPU_WriteMem(28 bytes @ 0xE0001000)  returns 0x1C (0001ms, 0589ms total)
T1094 000:610 JLINK_ReadMem (0xE0001000, 0x001C Bytes, ...) -- CPU_ReadMem(28 bytes @ 0xE0001000) - Data: 01 00 00 40 00 00 00 00 00 00 00 00 00 00 00 00 ...  returns 0x00 (0001ms, 0590ms total)
T1094 000:611 JLINK_ReadReg(R15 (PC))  returns 0x080001A4 (0000ms, 0590ms total)
T1094 000:611 JLINK_ReadReg(XPSR)  returns 0x01000000 (0000ms, 0590ms total)
T1094 000:677 JLINK_SetResetType(JLINKARM_RESET_TYPE_NORMAL)  returns JLINKARM_RESET_TYPE_NORMAL (0000ms, 0590ms total)
T1094 000:677 JLINK_Reset() -- CPU_WriteMem(4 bytes @ 0xE000EDF0) -- CPU_WriteMem(4 bytes @ 0xE000EDFC) -- CPU_WriteMem(4 bytes @ 0xE000ED0C) -- CPU_ReadMem(4 bytes @ 0xE000EDF0) -- CPU_ReadMem(4 bytes @ 0xE000EDF0) -- CPU_WriteMem(4 bytes @ 0xE000EDF0) -- CPU_WriteMem(4 bytes @ 0xE000EDFC) -- CPU is running -- CPU_ReadMem(4 bytes @ 0xE000EDF0) >0x80 JTAG> >0x40 JTAG> >0x30 JTAG> >0x40 JTAG> >0x50 JTAG> >0x40 JTAG> -- CPU_WriteMem(4 bytes @ 0xE000EDFC) -- CPU_WriteMem(4 bytes @ 0xE0001028)
 -- CPU_WriteMem(4 bytes @ 0xE0001038) -- CPU_WriteMem(4 bytes @ 0xE0001048) -- CPU_WriteMem(4 bytes @ 0xE0001058) -- CPU_WriteMem(4 bytes @ 0xE0002000) -- CPU_ReadMem(4 bytes @ 0xE000EDFC) -- CPU_ReadMem(4 bytes @ 0xE0001000) (0027ms, 0617ms total)
T1094 000:705 JLINK_ReadReg(R15 (PC))  returns 0x080001A4 (0000ms, 0617ms total)
T1094 000:705 JLINK_ReadReg(XPSR)  returns 0x01000000 (0000ms, 0617ms total)
T1094 000:705 JLINK_ReadMem (0x080001A4, 0x003C Bytes, ...) -- CPU_ReadMem(128 bytes @ 0x08000180) -- Updating C cache (128 bytes @ 0x08000180) -- Read from C cache (60 bytes @ 0x080001A4) - Data: 06 48 80 47 06 48 00 47 FE E7 FE E7 FE E7 FE E7 ...  returns 0x00 (0001ms, 0618ms total)
T1094 000:792 JLINK_ReadMem (0x40012C00, 0x0010 Bytes, ...) -- CPU_ReadMem(16 bytes @ 0x40012C00) - Data: 00 00 00 00 00 00 00 00 00 00 00 00 00 00 00 00  returns 0x00 (0000ms, 0618ms total)
T1094 000:792 JLINK_ReadMem (0x40012C10, 0x0004 Bytes, ...) -- CPU_ReadMem(4 bytes @ 0x40012C10) - Data: 00 00 00 00  returns 0x00 (0001ms, 0619ms total)
T1094 000:793 JLINK_ReadMem (0x40012C18, 0x0014 Bytes, ...) -- CPU_ReadMem(20 bytes @ 0x40012C18) - Data: 00 00 00 00 00 00 00 00 00 00 00 00 00 00 00 00 ...  returns 0x00 (0001ms, 0620ms total)
T1094 000:794 JLINK_ReadMem (0x40012C2C, 0x0004 Bytes, ...) -- CPU_ReadMem(4 bytes @ 0x40012C2C) - Data: 00 00 00 00  returns 0x00 (0000ms, 0620ms total)
T1094 000:794 JLINK_ReadMem (0x40012C30, 0x0004 Bytes, ...) -- CPU_ReadMem(4 bytes @ 0x40012C30) - Data: 00 00 00 00  returns 0x00 (0001ms, 0621ms total)
T1094 000:795 JLINK_ReadMem (0x40012C34, 0x000C Bytes, ...) -- CPU_ReadMem(12 bytes @ 0x40012C34) - Data: 00 00 00 00 00 00 00 00 00 00 00 00  returns 0x00 (0001ms, 0622ms total)
T1094 000:796 JLINK_ReadMem (0x40012C40, 0x0004 Bytes, ...) -- CPU_ReadMem(4 bytes @ 0x40012C40) - Data: 00 00 00 00  returns 0x00 (0000ms, 0622ms total)
T1094 000:796 JLINK_ReadMem (0x40012C44, 0x0004 Bytes, ...) -- CPU_ReadMem(4 bytes @ 0x40012C44) - Data: 00 00 00 00  returns 0x00 (0001ms, 0623ms total)
T1094 000:797 JLINK_ReadMem (0x40012C48, 0x0004 Bytes, ...) -- CPU_ReadMem(4 bytes @ 0x40012C48) - Data: 00 00 00 00  returns 0x00 (0001ms, 0624ms total)
T1094 000:798 JLINK_ReadMem (0x40012C4C, 0x0004 Bytes, ...) -- CPU_ReadMem(4 bytes @ 0x40012C4C) - Data: 00 00 00 00  returns 0x00 (0001ms, 0625ms total)
T22EC 001:497 JLINK_SetBPEx(Addr = 0x08001998, Type = 0xFFFFFFF2)  returns 0x00000001 (0000ms, 0625ms total)
T22EC 001:497 JLINK_Go() -- CPU_WriteMem(4 bytes @ 0xE0002008) -- CPU_WriteMem(4 bytes @ 0xE000200C) -- CPU_WriteMem(4 bytes @ 0xE0002010) -- CPU_WriteMem(4 bytes @ 0xE0002014) -- CPU_WriteMem(4 bytes @ 0xE0002018) -- CPU_WriteMem(4 bytes @ 0xE000201C) -- CPU_WriteMem(4 bytes @ 0xE0001004) (0004ms, 0629ms total)
T22EC 001:601 JLINK_IsHalted()  returns TRUE (0003ms, 0632ms total)
T22EC 001:604 JLINK_Halt()  returns 0x00 (0000ms, 0629ms total)
T22EC 001:604 JLINK_IsHalted()  returns TRUE (0000ms, 0629ms total)
T22EC 001:604 JLINK_IsHalted()  returns TRUE (0000ms, 0629ms total)
T22EC 001:604 JLINK_IsHalted()  returns TRUE (0000ms, 0629ms total)
T22EC 001:604 JLINK_ReadReg(R15 (PC))  returns 0x08001998 (0000ms, 0629ms total)
T22EC 001:604 JLINK_ReadReg(XPSR)  returns 0x61000000 (0000ms, 0629ms total)
T22EC 001:604 JLINK_ClrBPEx(BPHandle = 0x00000001)  returns 0x00 (0000ms, 0629ms total)
T22EC 001:604 JLINK_ReadMemU32(0xE000ED30, 0x0001 Items, ...) -- CPU_ReadMem(4 bytes @ 0xE000ED30) - Data: 03 00 00 00  returns 0x01 (0000ms, 0629ms total)
T22EC 001:604 JLINK_ReadMemU32(0xE0001028, 0x0001 Items, ...) -- CPU_ReadMem(4 bytes @ 0xE0001028) - Data: 00 00 00 00  returns 0x01 (0001ms, 0630ms total)
T22EC 001:605 JLINK_ReadMemU32(0xE0001038, 0x0001 Items, ...) -- CPU_ReadMem(4 bytes @ 0xE0001038) - Data: 00 02 00 00  returns 0x01 (0001ms, 0631ms total)
T22EC 001:606 JLINK_ReadMemU32(0xE0001048, 0x0001 Items, ...) -- CPU_ReadMem(4 bytes @ 0xE0001048) - Data: 00 00 00 00  returns 0x01 (0001ms, 0632ms total)
T22EC 001:607 JLINK_ReadMemU32(0xE0001058, 0x0001 Items, ...) -- CPU_ReadMem(4 bytes @ 0xE0001058) - Data: 00 00 00 00  returns 0x01 (0000ms, 0632ms total)
T22EC 001:607 JLINK_ReadReg(R0)  returns 0x08001999 (0000ms, 0632ms total)
T22EC 001:607 JLINK_ReadReg(R1)  returns 0x20000938 (0000ms, 0632ms total)
T22EC 001:607 JLINK_ReadReg(R2)  returns 0x00000000 (0000ms, 0632ms total)
T22EC 001:607 JLINK_ReadReg(R3)  returns 0x0800198B (0000ms, 0632ms total)
T22EC 001:607 JLINK_ReadReg(R4)  returns 0x08001C0C (0000ms, 0632ms total)
T22EC 001:607 JLINK_ReadReg(R5)  returns 0x08001C0C (0000ms, 0632ms total)
T22EC 001:607 JLINK_ReadReg(R6)  returns 0x00000000 (0000ms, 0632ms total)
T22EC 001:607 JLINK_ReadReg(R7)  returns 0x00000000 (0000ms, 0632ms total)
T22EC 001:607 JLINK_ReadReg(R8)  returns 0x00000000 (0000ms, 0632ms total)
T22EC 001:607 JLINK_ReadReg(R9)  returns 0x20000160 (0001ms, 0633ms total)
T22EC 001:608 JLINK_ReadReg(R10)  returns 0x00000000 (0000ms, 0633ms total)
T22EC 001:608 JLINK_ReadReg(R11)  returns 0x00000000 (0000ms, 0633ms total)
T22EC 001:608 JLINK_ReadReg(R12)  returns 0x00000040 (0000ms, 0633ms total)
T22EC 001:608 JLINK_ReadReg(R13 (SP))  returns 0x20000938 (0000ms, 0633ms total)
T22EC 001:608 JLINK_ReadReg(R14)  returns 0x08000649 (0000ms, 0633ms total)
T22EC 001:608 JLINK_ReadReg(R15 (PC))  returns 0x08001998 (0000ms, 0633ms total)
T22EC 001:608 JLINK_ReadReg(XPSR)  returns 0x61000000 (0000ms, 0633ms total)
T22EC 001:608 JLINK_ReadReg(MSP)  returns 0x20000938 (0000ms, 0633ms total)
T22EC 001:608 JLINK_ReadReg(PSP)  returns 0x20001000 (0000ms, 0633ms total)
T22EC 001:608 JLINK_ReadReg(CFBP)  returns 0x00000000 (0000ms, 0633ms total)
T1094 001:614 JLINK_ReadMem (0x40012C00, 0x0010 Bytes, ...) -- CPU_ReadMem(16 bytes @ 0x40012C00) - Data: 00 00 00 00 00 00 00 00 00 00 00 00 00 00 00 00  returns 0x00 (0001ms, 0634ms total)
T1094 001:615 JLINK_ReadMem (0x40012C10, 0x0004 Bytes, ...) -- CPU_ReadMem(4 bytes @ 0x40012C10) - Data: 00 00 00 00  returns 0x00 (0000ms, 0634ms total)
T1094 001:615 JLINK_ReadMem (0x40012C18, 0x0014 Bytes, ...) -- CPU_ReadMem(20 bytes @ 0x40012C18) - Data: 00 00 00 00 00 00 00 00 00 00 00 00 00 00 00 00 ...  returns 0x00 (0001ms, 0635ms total)
T1094 001:616 JLINK_ReadMem (0x40012C2C, 0x0004 Bytes, ...) -- CPU_ReadMem(4 bytes @ 0x40012C2C) - Data: 00 00 00 00  returns 0x00 (0001ms, 0636ms total)
T1094 001:617 JLINK_ReadMem (0x40012C30, 0x0004 Bytes, ...) -- CPU_ReadMem(4 bytes @ 0x40012C30) - Data: 00 00 00 00  returns 0x00 (0000ms, 0636ms total)
T1094 001:617 JLINK_ReadMem (0x40012C34, 0x000C Bytes, ...) -- CPU_ReadMem(12 bytes @ 0x40012C34) - Data: 00 00 00 00 00 00 00 00 00 00 00 00  returns 0x00 (0001ms, 0637ms total)
T1094 001:618 JLINK_ReadMem (0x40012C40, 0x0004 Bytes, ...) -- CPU_ReadMem(4 bytes @ 0x40012C40) - Data: 00 00 00 00  returns 0x00 (0001ms, 0638ms total)
T1094 001:619 JLINK_ReadMem (0x40012C44, 0x0004 Bytes, ...) -- CPU_ReadMem(4 bytes @ 0x40012C44) - Data: 00 00 00 00  returns 0x00 (0000ms, 0638ms total)
T1094 001:619 JLINK_ReadMem (0x40012C48, 0x0004 Bytes, ...) -- CPU_ReadMem(4 bytes @ 0x40012C48) - Data: 00 00 00 00  returns 0x00 (0001ms, 0639ms total)
T1094 001:620 JLINK_ReadMem (0x40012C4C, 0x0004 Bytes, ...) -- CPU_ReadMem(4 bytes @ 0x40012C4C) - Data: 00 00 00 00  returns 0x00 (0001ms, 0640ms total)
T1094 001:621 JLINK_ReadMem (0x08001998, 0x003C Bytes, ...) -- CPU_ReadMem(128 bytes @ 0x08001980) -- Updating C cache (128 bytes @ 0x08001980) -- Read from C cache (60 bytes @ 0x08001998) - Data: 00 BF 40 F6 FF 74 FE F7 D7 FE 00 BF 08 E0 60 1E ...  returns 0x00 (0001ms, 0641ms total)
T22EC 002:555 JLINK_Go() -- CPU_WriteMem(4 bytes @ 0xE0002008) (0002ms, 0643ms total)
T22EC 002:658 JLINK_IsHalted()  returns FALSE (0000ms, 0643ms total)
T22EC 002:759 JLINK_IsHalted()  returns FALSE (0000ms, 0643ms total)
T22EC 002:860 JLINK_IsHalted()  returns FALSE (0000ms, 0643ms total)
T22EC 002:961 JLINK_IsHalted()  returns FALSE (0000ms, 0643ms total)
T22EC 003:062 JLINK_ReadMemU32(0xE0001004, 0x0001 Items, ...) -- CPU is running -- CPU_ReadMem(4 bytes @ 0xE0001004) - Data: 50 96 2B 02  returns 0x01 (0000ms, 0643ms total)
T1094 003:064 JLINK_ReadMem (0x40012C00, 0x0010 Bytes, ...) -- CPU is running -- CPU_ReadMem(16 bytes @ 0x40012C00) - Data: 81 00 00 00 00 00 00 00 00 00 00 00 00 00 00 00  returns 0x00 (0001ms, 0644ms total)
T1094 003:065 JLINK_ReadMem (0x40012C10, 0x0004 Bytes, ...) -- CPU is running -- CPU_ReadMem(4 bytes @ 0x40012C10) - Data: 1F 00 00 00  returns 0x00 (0000ms, 0644ms total)
T1094 003:065 JLINK_ReadMem (0x40012C18, 0x0014 Bytes, ...) -- CPU is running -- CPU_ReadMem(20 bytes @ 0x40012C18) - Data: 68 68 00 00 68 00 00 00 55 05 00 00 A8 05 00 00 ...  returns 0x00 (0001ms, 0645ms total)
T1094 003:066 JLINK_ReadMem (0x40012C2C, 0x0004 Bytes, ...) -- CPU is running -- CPU_ReadMem(4 bytes @ 0x40012C2C) - Data: CF 07 00 00  returns 0x00 (0001ms, 0646ms total)
T1094 003:067 JLINK_ReadMem (0x40012C30, 0x0004 Bytes, ...) -- CPU is running -- CPU_ReadMem(4 bytes @ 0x40012C30) - Data: 00 00 00 00  returns 0x00 (0001ms, 0647ms total)
T1094 003:068 JLINK_ReadMem (0x40012C34, 0x000C Bytes, ...) -- CPU is running -- CPU_ReadMem(12 bytes @ 0x40012C34) - Data: E8 03 00 00 E8 03 00 00 E8 03 00 00  returns 0x00 (0001ms, 0648ms total)
T1094 003:069 JLINK_ReadMem (0x40012C40, 0x0004 Bytes, ...) -- CPU is running -- CPU_ReadMem(4 bytes @ 0x40012C40) - Data: 00 00 00 00  returns 0x00 (0000ms, 0648ms total)
T1094 003:069 JLINK_ReadMem (0x40012C44, 0x0004 Bytes, ...) -- CPU is running -- CPU_ReadMem(4 bytes @ 0x40012C44) - Data: 28 C0 00 00  returns 0x00 (0001ms, 0649ms total)
T1094 003:070 JLINK_ReadMem (0x40012C48, 0x0004 Bytes, ...) -- CPU is running -- CPU_ReadMem(4 bytes @ 0x40012C48) - Data: 00 00 00 00  returns 0x00 (0001ms, 0650ms total)
T1094 003:071 JLINK_ReadMem (0x40012C4C, 0x0004 Bytes, ...) -- CPU is running -- CPU_ReadMem(4 bytes @ 0x40012C4C) - Data: 81 00 00 00  returns 0x00 (0000ms, 0650ms total)
T22EC 003:072 JLINK_IsHalted()  returns FALSE (0001ms, 0651ms total)
T22EC 003:175 JLINK_IsHalted()  returns FALSE (0000ms, 0650ms total)
T22EC 003:276 JLINK_IsHalted()  returns FALSE (0000ms, 0650ms total)
T22EC 003:377 JLINK_IsHalted()  returns FALSE (0000ms, 0650ms total)
T22EC 003:478 JLINK_IsHalted()  returns FALSE (0000ms, 0650ms total)
T22EC 003:579 JLINK_ReadMemU32(0xE0001004, 0x0001 Items, ...) -- CPU is running -- CPU_ReadMem(4 bytes @ 0xE0001004) - Data: 68 44 63 04  returns 0x01 (0001ms, 0651ms total)
T1094 003:581 JLINK_ReadMem (0x40012C00, 0x0010 Bytes, ...) -- CPU is running -- CPU_ReadMem(16 bytes @ 0x40012C00) - Data: 81 00 00 00 00 00 00 00 00 00 00 00 00 00 00 00  returns 0x00 (0001ms, 0652ms total)
T1094 003:582 JLINK_ReadMem (0x40012C10, 0x0004 Bytes, ...) -- CPU is running -- CPU_ReadMem(4 bytes @ 0x40012C10) - Data: 1F 00 00 00  returns 0x00 (0000ms, 0652ms total)
T1094 003:582 JLINK_ReadMem (0x40012C18, 0x0014 Bytes, ...) -- CPU is running -- CPU_ReadMem(20 bytes @ 0x40012C18) - Data: 68 68 00 00 68 00 00 00 55 05 00 00 CC 06 00 00 ...  returns 0x00 (0001ms, 0653ms total)
T1094 003:583 JLINK_ReadMem (0x40012C2C, 0x0004 Bytes, ...) -- CPU is running -- CPU_ReadMem(4 bytes @ 0x40012C2C) - Data: CF 07 00 00  returns 0x00 (0001ms, 0654ms total)
T1094 003:584 JLINK_ReadMem (0x40012C30, 0x0004 Bytes, ...) -- CPU is running -- CPU_ReadMem(4 bytes @ 0x40012C30) - Data: 00 00 00 00  returns 0x00 (0001ms, 0655ms total)
T1094 003:585 JLINK_ReadMem (0x40012C34, 0x000C Bytes, ...) -- CPU is running -- CPU_ReadMem(12 bytes @ 0x40012C34) - Data: E8 03 00 00 E8 03 00 00 E8 03 00 00  returns 0x00 (0000ms, 0655ms total)
T1094 003:585 JLINK_ReadMem (0x40012C40, 0x0004 Bytes, ...) -- CPU is running -- CPU_ReadMem(4 bytes @ 0x40012C40) - Data: 00 00 00 00  returns 0x00 (0001ms, 0656ms total)
T1094 003:586 JLINK_ReadMem (0x40012C44, 0x0004 Bytes, ...) -- CPU is running -- CPU_ReadMem(4 bytes @ 0x40012C44) - Data: 28 C0 00 00  returns 0x00 (0001ms, 0657ms total)
T1094 003:587 JLINK_ReadMem (0x40012C48, 0x0004 Bytes, ...) -- CPU is running -- CPU_ReadMem(4 bytes @ 0x40012C48) - Data: 00 00 00 00  returns 0x00 (0000ms, 0657ms total)
T1094 003:587 JLINK_ReadMem (0x40012C4C, 0x0004 Bytes, ...) -- CPU is running -- CPU_ReadMem(4 bytes @ 0x40012C4C) - Data: 81 00 00 00  returns 0x00 (0001ms, 0658ms total)
T22EC 003:588 JLINK_IsHalted()  returns FALSE (0001ms, 0659ms total)
T22EC 003:690 JLINK_IsHalted()  returns FALSE (0000ms, 0658ms total)
T22EC 003:791 JLINK_IsHalted()  returns FALSE (0000ms, 0658ms total)
T22EC 003:892 JLINK_IsHalted()  returns FALSE (0000ms, 0658ms total)
T22EC 003:993 JLINK_IsHalted()  returns FALSE (0000ms, 0658ms total)
T22EC 004:093 JLINK_ReadMemU32(0xE0001004, 0x0001 Items, ...) -- CPU is running -- CPU_ReadMem(4 bytes @ 0xE0001004) - Data: 12 85 98 06  returns 0x01 (0001ms, 0659ms total)
T1094 004:096 JLINK_ReadMem (0x40012C00, 0x0010 Bytes, ...) -- CPU is running -- CPU_ReadMem(16 bytes @ 0x40012C00) - Data: 81 00 00 00 00 00 00 00 00 00 00 00 00 00 00 00  returns 0x00 (0001ms, 0660ms total)
T1094 004:097 JLINK_ReadMem (0x40012C10, 0x0004 Bytes, ...) -- CPU is running -- CPU_ReadMem(4 bytes @ 0x40012C10) - Data: 1F 00 00 00  returns 0x00 (0000ms, 0660ms total)
T1094 004:097 JLINK_ReadMem (0x40012C18, 0x0014 Bytes, ...) -- CPU is running -- CPU_ReadMem(20 bytes @ 0x40012C18) - Data: 68 68 00 00 68 00 00 00 55 05 00 00 94 02 00 00 ...  returns 0x00 (0001ms, 0661ms total)
T1094 004:098 JLINK_ReadMem (0x40012C2C, 0x0004 Bytes, ...) -- CPU is running -- CPU_ReadMem(4 bytes @ 0x40012C2C) - Data: CF 07 00 00  returns 0x00 (0001ms, 0662ms total)
T1094 004:099 JLINK_ReadMem (0x40012C30, 0x0004 Bytes, ...) -- CPU is running -- CPU_ReadMem(4 bytes @ 0x40012C30) - Data: 00 00 00 00  returns 0x00 (0001ms, 0663ms total)
T1094 004:100 JLINK_ReadMem (0x40012C34, 0x000C Bytes, ...) -- CPU is running -- CPU_ReadMem(12 bytes @ 0x40012C34) - Data: E8 03 00 00 E8 03 00 00 E8 03 00 00  returns 0x00 (0000ms, 0663ms total)
T1094 004:100 JLINK_ReadMem (0x40012C40, 0x0004 Bytes, ...) -- CPU is running -- CPU_ReadMem(4 bytes @ 0x40012C40) - Data: 00 00 00 00  returns 0x00 (0001ms, 0664ms total)
T1094 004:101 JLINK_ReadMem (0x40012C44, 0x0004 Bytes, ...) -- CPU is running -- CPU_ReadMem(4 bytes @ 0x40012C44) - Data: 28 C0 00 00  returns 0x00 (0000ms, 0664ms total)
T1094 004:101 JLINK_ReadMem (0x40012C48, 0x0004 Bytes, ...) -- CPU is running -- CPU_ReadMem(4 bytes @ 0x40012C48) - Data: 00 00 00 00  returns 0x00 (0001ms, 0665ms total)
T1094 004:102 JLINK_ReadMem (0x40012C4C, 0x0004 Bytes, ...) -- CPU is running -- CPU_ReadMem(4 bytes @ 0x40012C4C) - Data: 81 00 00 00  returns 0x00 (0000ms, 0665ms total)
T22EC 004:103 JLINK_IsHalted()  returns FALSE (0000ms, 0665ms total)
T22EC 004:204 JLINK_IsHalted()  returns FALSE (0000ms, 0665ms total)
T22EC 004:304 JLINK_IsHalted()  returns FALSE (0001ms, 0666ms total)
T22EC 004:406 JLINK_IsHalted()  returns FALSE (0000ms, 0665ms total)
T22EC 004:507 JLINK_IsHalted()  returns FALSE (0000ms, 0665ms total)
T22EC 004:608 JLINK_ReadMemU32(0xE0001004, 0x0001 Items, ...) -- CPU is running -- CPU_ReadMem(4 bytes @ 0xE0001004) - Data: 40 A8 CD 08  returns 0x01 (0001ms, 0666ms total)
T1094 004:610 JLINK_ReadMem (0x40012C00, 0x0010 Bytes, ...) -- CPU is running -- CPU_ReadMem(16 bytes @ 0x40012C00) - Data: 81 00 00 00 00 00 00 00 00 00 00 00 00 00 00 00  returns 0x00 (0001ms, 0667ms total)
T1094 004:611 JLINK_ReadMem (0x40012C10, 0x0004 Bytes, ...) -- CPU is running -- CPU_ReadMem(4 bytes @ 0x40012C10) - Data: 1F 00 00 00  returns 0x00 (0001ms, 0668ms total)
T1094 004:612 JLINK_ReadMem (0x40012C18, 0x0014 Bytes, ...) -- CPU is running -- CPU_ReadMem(20 bytes @ 0x40012C18) - Data: 68 68 00 00 68 00 00 00 55 05 00 00 4E 00 00 00 ...  returns 0x00 (0000ms, 0668ms total)
T1094 004:612 JLINK_ReadMem (0x40012C2C, 0x0004 Bytes, ...) -- CPU is running -- CPU_ReadMem(4 bytes @ 0x40012C2C) - Data: CF 07 00 00  returns 0x00 (0001ms, 0669ms total)
T1094 004:613 JLINK_ReadMem (0x40012C30, 0x0004 Bytes, ...) -- CPU is running -- CPU_ReadMem(4 bytes @ 0x40012C30) - Data: 00 00 00 00  returns 0x00 (0000ms, 0669ms total)
T1094 004:614 JLINK_ReadMem (0x40012C34, 0x000C Bytes, ...) -- CPU is running -- CPU_ReadMem(12 bytes @ 0x40012C34) - Data: E8 03 00 00 E8 03 00 00 E8 03 00 00  returns 0x00 (0000ms, 0669ms total)
T1094 004:614 JLINK_ReadMem (0x40012C40, 0x0004 Bytes, ...) -- CPU is running -- CPU_ReadMem(4 bytes @ 0x40012C40) - Data: 00 00 00 00  returns 0x00 (0001ms, 0670ms total)
T1094 004:615 JLINK_ReadMem (0x40012C44, 0x0004 Bytes, ...) -- CPU is running -- CPU_ReadMem(4 bytes @ 0x40012C44) - Data: 28 C0 00 00  returns 0x00 (0000ms, 0670ms total)
T1094 004:615 JLINK_ReadMem (0x40012C48, 0x0004 Bytes, ...) -- CPU is running -- CPU_ReadMem(4 bytes @ 0x40012C48) - Data: 00 00 00 00  returns 0x00 (0001ms, 0671ms total)
T1094 004:616 JLINK_ReadMem (0x40012C4C, 0x0004 Bytes, ...) -- CPU is running -- CPU_ReadMem(4 bytes @ 0x40012C4C) - Data: 81 00 00 00  returns 0x00 (0000ms, 0671ms total)
T22EC 004:617 JLINK_IsHalted()  returns FALSE (0000ms, 0671ms total)
T22EC 004:718 JLINK_IsHalted()  returns FALSE (0000ms, 0671ms total)
T22EC 004:819 JLINK_IsHalted()  returns FALSE (0000ms, 0671ms total)
T22EC 004:920 JLINK_IsHalted()  returns FALSE (0000ms, 0671ms total)
T22EC 005:021 JLINK_IsHalted()  returns FALSE (0000ms, 0671ms total)
T22EC 005:121 JLINK_IsHalted()  returns FALSE (0000ms, 0671ms total)
T22EC 005:222 JLINK_ReadMemU32(0xE0001004, 0x0001 Items, ...) -- CPU is running -- CPU_ReadMem(4 bytes @ 0xE0001004) - Data: 7A 85 70 0B  returns 0x01 (0000ms, 0671ms total)
T1094 005:224 JLINK_ReadMem (0x40012C00, 0x0010 Bytes, ...) -- CPU is running -- CPU_ReadMem(16 bytes @ 0x40012C00) - Data: 81 00 00 00 00 00 00 00 00 00 00 00 00 00 00 00  returns 0x00 (0000ms, 0671ms total)
T1094 005:224 JLINK_ReadMem (0x40012C10, 0x0004 Bytes, ...) -- CPU is running -- CPU_ReadMem(4 bytes @ 0x40012C10) - Data: 1F 00 00 00  returns 0x00 (0001ms, 0672ms total)
T1094 005:225 JLINK_ReadMem (0x40012C18, 0x0014 Bytes, ...) -- CPU is running -- CPU_ReadMem(20 bytes @ 0x40012C18) - Data: 68 68 00 00 68 00 00 00 55 05 00 00 3F 05 00 00 ...  returns 0x00 (0001ms, 0673ms total)
T1094 005:226 JLINK_ReadMem (0x40012C2C, 0x0004 Bytes, ...) -- CPU is running -- CPU_ReadMem(4 bytes @ 0x40012C2C) - Data: CF 07 00 00  returns 0x00 (0000ms, 0673ms total)
T1094 005:226 JLINK_ReadMem (0x40012C30, 0x0004 Bytes, ...) -- CPU is running -- CPU_ReadMem(4 bytes @ 0x40012C30) - Data: 00 00 00 00  returns 0x00 (0001ms, 0674ms total)
T1094 005:227 JLINK_ReadMem (0x40012C34, 0x000C Bytes, ...) -- CPU is running -- CPU_ReadMem(12 bytes @ 0x40012C34) - Data: E8 03 00 00 E8 03 00 00 E8 03 00 00  returns 0x00 (0001ms, 0675ms total)
T1094 005:228 JLINK_ReadMem (0x40012C40, 0x0004 Bytes, ...) -- CPU is running -- CPU_ReadMem(4 bytes @ 0x40012C40) - Data: 00 00 00 00  returns 0x00 (0001ms, 0676ms total)
T1094 005:229 JLINK_ReadMem (0x40012C44, 0x0004 Bytes, ...) -- CPU is running -- CPU_ReadMem(4 bytes @ 0x40012C44) - Data: 28 C0 00 00  returns 0x00 (0000ms, 0676ms total)
T1094 005:229 JLINK_ReadMem (0x40012C48, 0x0004 Bytes, ...) -- CPU is running -- CPU_ReadMem(4 bytes @ 0x40012C48) - Data: 00 00 00 00  returns 0x00 (0001ms, 0677ms total)
T1094 005:230 JLINK_ReadMem (0x40012C4C, 0x0004 Bytes, ...) -- CPU is running -- CPU_ReadMem(4 bytes @ 0x40012C4C) - Data: 81 00 00 00  returns 0x00 (0000ms, 0677ms total)
T22EC 005:231 JLINK_IsHalted()  returns FALSE (0000ms, 0677ms total)
T22EC 005:333 JLINK_IsHalted()  returns FALSE (0000ms, 0677ms total)
T22EC 005:434 JLINK_IsHalted()  returns FALSE (0000ms, 0677ms total)
T22EC 005:535 JLINK_IsHalted()  returns FALSE (0000ms, 0677ms total)
T22EC 005:636 JLINK_IsHalted()  returns FALSE (0001ms, 0678ms total)
T22EC 005:738 JLINK_ReadMemU32(0xE0001004, 0x0001 Items, ...) -- CPU is running -- CPU_ReadMem(4 bytes @ 0xE0001004) - Data: AF A4 A6 0D  returns 0x01 (0000ms, 0677ms total)
T1094 005:739 JLINK_ReadMem (0x40012C00, 0x0010 Bytes, ...) -- CPU is running -- CPU_ReadMem(16 bytes @ 0x40012C00) - Data: 81 00 00 00 00 00 00 00 00 00 00 00 00 00 00 00  returns 0x00 (0001ms, 0678ms total)
T1094 005:740 JLINK_ReadMem (0x40012C10, 0x0004 Bytes, ...) -- CPU is running -- CPU_ReadMem(4 bytes @ 0x40012C10) - Data: 1F 00 00 00  returns 0x00 (0001ms, 0679ms total)
T1094 005:741 JLINK_ReadMem (0x40012C18, 0x0014 Bytes, ...) -- CPU is running -- CPU_ReadMem(20 bytes @ 0x40012C18) - Data: 68 68 00 00 68 00 00 00 55 05 00 00 C8 05 00 00 ...  returns 0x00 (0001ms, 0680ms total)
T1094 005:742 JLINK_ReadMem (0x40012C2C, 0x0004 Bytes, ...) -- CPU is running -- CPU_ReadMem(4 bytes @ 0x40012C2C) - Data: CF 07 00 00  returns 0x00 (0001ms, 0681ms total)
T1094 005:743 JLINK_ReadMem (0x40012C30, 0x0004 Bytes, ...) -- CPU is running -- CPU_ReadMem(4 bytes @ 0x40012C30) - Data: 00 00 00 00  returns 0x00 (0000ms, 0681ms total)
T1094 005:743 JLINK_ReadMem (0x40012C34, 0x000C Bytes, ...) -- CPU is running -- CPU_ReadMem(12 bytes @ 0x40012C34) - Data: E8 03 00 00 E8 03 00 00 E8 03 00 00  returns 0x00 (0001ms, 0682ms total)
T1094 005:744 JLINK_ReadMem (0x40012C40, 0x0004 Bytes, ...) -- CPU is running -- CPU_ReadMem(4 bytes @ 0x40012C40) - Data: 00 00 00 00  returns 0x00 (0001ms, 0683ms total)
T1094 005:745 JLINK_ReadMem (0x40012C44, 0x0004 Bytes, ...) -- CPU is running -- CPU_ReadMem(4 bytes @ 0x40012C44) - Data: 28 C0 00 00  returns 0x00 (0000ms, 0683ms total)
T1094 005:745 JLINK_ReadMem (0x40012C48, 0x0004 Bytes, ...) -- CPU is running -- CPU_ReadMem(4 bytes @ 0x40012C48) - Data: 00 00 00 00  returns 0x00 (0001ms, 0684ms total)
T1094 005:746 JLINK_ReadMem (0x40012C4C, 0x0004 Bytes, ...) -- CPU is running -- CPU_ReadMem(4 bytes @ 0x40012C4C) - Data: 81 00 00 00  returns 0x00 (0000ms, 0684ms total)
T22EC 005:746 JLINK_IsHalted()  returns FALSE (0001ms, 0685ms total)
T22EC 005:848 JLINK_IsHalted()  returns FALSE (0000ms, 0684ms total)
T22EC 005:949 JLINK_IsHalted()  returns FALSE (0000ms, 0684ms total)
T22EC 006:050 JLINK_IsHalted()  returns FALSE (0000ms, 0684ms total)
T22EC 006:151 JLINK_IsHalted()  returns FALSE (0000ms, 0684ms total)
T22EC 006:252 JLINK_ReadMemU32(0xE0001004, 0x0001 Items, ...) -- CPU is running -- CPU_ReadMem(4 bytes @ 0xE0001004) - Data: DD DF DB 0F  returns 0x01 (0000ms, 0684ms total)
T1094 006:254 JLINK_ReadMem (0x40012C00, 0x0010 Bytes, ...) -- CPU is running -- CPU_ReadMem(16 bytes @ 0x40012C00) - Data: 81 00 00 00 00 00 00 00 00 00 00 00 00 00 00 00  returns 0x00 (0000ms, 0684ms total)
T1094 006:254 JLINK_ReadMem (0x40012C10, 0x0004 Bytes, ...) -- CPU is running -- CPU_ReadMem(4 bytes @ 0x40012C10) - Data: 1F 00 00 00  returns 0x00 (0001ms, 0685ms total)
T1094 006:255 JLINK_ReadMem (0x40012C18, 0x0014 Bytes, ...) -- CPU is running -- CPU_ReadMem(20 bytes @ 0x40012C18) - Data: 68 68 00 00 68 00 00 00 55 05 00 00 95 04 00 00 ...  returns 0x00 (0001ms, 0686ms total)
T1094 006:256 JLINK_ReadMem (0x40012C2C, 0x0004 Bytes, ...) -- CPU is running -- CPU_ReadMem(4 bytes @ 0x40012C2C) - Data: CF 07 00 00  returns 0x00 (0001ms, 0687ms total)
T1094 006:257 JLINK_ReadMem (0x40012C30, 0x0004 Bytes, ...) -- CPU is running -- CPU_ReadMem(4 bytes @ 0x40012C30) - Data: 00 00 00 00  returns 0x00 (0000ms, 0687ms total)
T1094 006:257 JLINK_ReadMem (0x40012C34, 0x000C Bytes, ...) -- CPU is running -- CPU_ReadMem(12 bytes @ 0x40012C34) - Data: E8 03 00 00 E8 03 00 00 E8 03 00 00  returns 0x00 (0001ms, 0688ms total)
T1094 006:258 JLINK_ReadMem (0x40012C40, 0x0004 Bytes, ...) -- CPU is running -- CPU_ReadMem(4 bytes @ 0x40012C40) - Data: 00 00 00 00  returns 0x00 (0000ms, 0688ms total)
T1094 006:258 JLINK_ReadMem (0x40012C44, 0x0004 Bytes, ...) -- CPU is running -- CPU_ReadMem(4 bytes @ 0x40012C44) - Data: 28 C0 00 00  returns 0x00 (0001ms, 0689ms total)
T1094 006:259 JLINK_ReadMem (0x40012C48, 0x0004 Bytes, ...) -- CPU is running -- CPU_ReadMem(4 bytes @ 0x40012C48) - Data: 00 00 00 00  returns 0x00 (0000ms, 0689ms total)
T1094 006:259 JLINK_ReadMem (0x40012C4C, 0x0004 Bytes, ...) -- CPU is running -- CPU_ReadMem(4 bytes @ 0x40012C4C) - Data: 81 00 00 00  returns 0x00 (0001ms, 0690ms total)
T22EC 006:260 JLINK_IsHalted()  returns FALSE (0000ms, 0690ms total)
T22EC 006:361 JLINK_IsHalted()  returns FALSE (0000ms, 0690ms total)
T22EC 006:462 JLINK_IsHalted()  returns FALSE (0000ms, 0690ms total)
T22EC 006:563 JLINK_IsHalted()  returns FALSE (0000ms, 0690ms total)
T22EC 006:664 JLINK_IsHalted()  returns FALSE (0000ms, 0690ms total)
T22EC 006:766 JLINK_ReadMemU32(0xE0001004, 0x0001 Items, ...) -- CPU is running -- CPU_ReadMem(4 bytes @ 0xE0001004) - Data: 2F B9 0F 12  returns 0x01 (0000ms, 0690ms total)
T1094 006:769 JLINK_ReadMem (0x40012C00, 0x0010 Bytes, ...) -- CPU is running -- CPU_ReadMem(16 bytes @ 0x40012C00) - Data: 81 00 00 00 00 00 00 00 00 00 00 00 00 00 00 00  returns 0x00 (0001ms, 0691ms total)
T1094 006:770 JLINK_ReadMem (0x40012C10, 0x0004 Bytes, ...) -- CPU is running -- CPU_ReadMem(4 bytes @ 0x40012C10) - Data: 1F 00 00 00  returns 0x00 (0000ms, 0691ms total)
T1094 006:770 JLINK_ReadMem (0x40012C18, 0x0014 Bytes, ...) -- CPU is running -- CPU_ReadMem(20 bytes @ 0x40012C18) - Data: 68 68 00 00 68 00 00 00 55 05 00 00 F2 00 00 00 ...  returns 0x00 (0001ms, 0692ms total)
T1094 006:771 JLINK_ReadMem (0x40012C2C, 0x0004 Bytes, ...) -- CPU is running -- CPU_ReadMem(4 bytes @ 0x40012C2C) - Data: CF 07 00 00  returns 0x00 (0001ms, 0693ms total)
T1094 006:772 JLINK_ReadMem (0x40012C30, 0x0004 Bytes, ...) -- CPU is running -- CPU_ReadMem(4 bytes @ 0x40012C30) - Data: 00 00 00 00  returns 0x00 (0000ms, 0693ms total)
T1094 006:772 JLINK_ReadMem (0x40012C34, 0x000C Bytes, ...) -- CPU is running -- CPU_ReadMem(12 bytes @ 0x40012C34) - Data: E8 03 00 00 E8 03 00 00 E8 03 00 00  returns 0x00 (0001ms, 0694ms total)
T1094 006:773 JLINK_ReadMem (0x40012C40, 0x0004 Bytes, ...) -- CPU is running -- CPU_ReadMem(4 bytes @ 0x40012C40) - Data: 00 00 00 00  returns 0x00 (0001ms, 0695ms total)
T1094 006:774 JLINK_ReadMem (0x40012C44, 0x0004 Bytes, ...) -- CPU is running -- CPU_ReadMem(4 bytes @ 0x40012C44) - Data: 28 C0 00 00  returns 0x00 (0000ms, 0695ms total)
T1094 006:774 JLINK_ReadMem (0x40012C48, 0x0004 Bytes, ...) -- CPU is running -- CPU_ReadMem(4 bytes @ 0x40012C48) - Data: 00 00 00 00  returns 0x00 (0001ms, 0696ms total)
T1094 006:775 JLINK_ReadMem (0x40012C4C, 0x0004 Bytes, ...) -- CPU is running -- CPU_ReadMem(4 bytes @ 0x40012C4C) - Data: 81 00 00 00  returns 0x00 (0000ms, 0696ms total)
T22EC 006:776 JLINK_IsHalted()  returns FALSE (0000ms, 0696ms total)
T22EC 006:877 JLINK_IsHalted()  returns FALSE (0000ms, 0696ms total)
T22EC 006:978 JLINK_IsHalted()  returns FALSE (0000ms, 0696ms total)
T22EC 007:079 JLINK_IsHalted()  returns FALSE (0000ms, 0696ms total)
T22EC 007:180 JLINK_IsHalted()  returns FALSE (0000ms, 0696ms total)
T22EC 007:281 JLINK_ReadMemU32(0xE0001004, 0x0001 Items, ...) -- CPU is running -- CPU_ReadMem(4 bytes @ 0xE0001004) - Data: 43 1F 46 14  returns 0x01 (0000ms, 0696ms total)
T1094 007:283 JLINK_ReadMem (0x40012C00, 0x0010 Bytes, ...) -- CPU is running -- CPU_ReadMem(16 bytes @ 0x40012C00) - Data: 81 00 00 00 00 00 00 00 00 00 00 00 00 00 00 00  returns 0x00 (0000ms, 0696ms total)
T1094 007:283 JLINK_ReadMem (0x40012C10, 0x0004 Bytes, ...) -- CPU is running -- CPU_ReadMem(4 bytes @ 0x40012C10) - Data: 1F 00 00 00  returns 0x00 (0001ms, 0697ms total)
T1094 007:284 JLINK_ReadMem (0x40012C18, 0x0014 Bytes, ...) -- CPU is running -- CPU_ReadMem(20 bytes @ 0x40012C18) - Data: 68 68 00 00 68 00 00 00 55 05 00 00 14 05 00 00 ...  returns 0x00 (0001ms, 0698ms total)
T1094 007:285 JLINK_ReadMem (0x40012C2C, 0x0004 Bytes, ...) -- CPU is running -- CPU_ReadMem(4 bytes @ 0x40012C2C) - Data: CF 07 00 00  returns 0x00 (0001ms, 0699ms total)
T1094 007:286 JLINK_ReadMem (0x40012C30, 0x0004 Bytes, ...) -- CPU is running -- CPU_ReadMem(4 bytes @ 0x40012C30) - Data: 00 00 00 00  returns 0x00 (0000ms, 0699ms total)
T1094 007:286 JLINK_ReadMem (0x40012C34, 0x000C Bytes, ...) -- CPU is running -- CPU_ReadMem(12 bytes @ 0x40012C34) - Data: E8 03 00 00 E8 03 00 00 E8 03 00 00  returns 0x00 (0001ms, 0700ms total)
T1094 007:287 JLINK_ReadMem (0x40012C40, 0x0004 Bytes, ...) -- CPU is running -- CPU_ReadMem(4 bytes @ 0x40012C40) - Data: 00 00 00 00  returns 0x00 (0001ms, 0701ms total)
T1094 007:288 JLINK_ReadMem (0x40012C44, 0x0004 Bytes, ...) -- CPU is running -- CPU_ReadMem(4 bytes @ 0x40012C44) - Data: 28 C0 00 00  returns 0x00 (0000ms, 0701ms total)
T1094 007:288 JLINK_ReadMem (0x40012C48, 0x0004 Bytes, ...) -- CPU is running -- CPU_ReadMem(4 bytes @ 0x40012C48) - Data: 00 00 00 00  returns 0x00 (0001ms, 0702ms total)
T1094 007:289 JLINK_ReadMem (0x40012C4C, 0x0004 Bytes, ...) -- CPU is running -- CPU_ReadMem(4 bytes @ 0x40012C4C) - Data: 81 00 00 00  returns 0x00 (0000ms, 0702ms total)
T22EC 007:290 JLINK_IsHalted()  returns FALSE (0000ms, 0702ms total)
T22EC 007:391 JLINK_IsHalted()  returns FALSE (0000ms, 0702ms total)
T22EC 007:492 JLINK_IsHalted()  returns FALSE (0000ms, 0702ms total)
T22EC 007:593 JLINK_IsHalted()  returns FALSE (0001ms, 0703ms total)
T22EC 007:694 JLINK_IsHalted()  returns FALSE (0001ms, 0703ms total)
T22EC 007:796 JLINK_ReadMemU32(0xE0001004, 0x0001 Items, ...) -- CPU is running -- CPU_ReadMem(4 bytes @ 0xE0001004) - Data: 8E 4F 7B 16  returns 0x01 (0000ms, 0702ms total)
T1094 007:798 JLINK_ReadMem (0x40012C00, 0x0010 Bytes, ...) -- CPU is running -- CPU_ReadMem(16 bytes @ 0x40012C00) - Data: 81 00 00 00 00 00 00 00 00 00 00 00 00 00 00 00  returns 0x00 (0001ms, 0703ms total)
T1094 007:799 JLINK_ReadMem (0x40012C10, 0x0004 Bytes, ...) -- CPU is running -- CPU_ReadMem(4 bytes @ 0x40012C10) - Data: 1F 00 00 00  returns 0x00 (0001ms, 0704ms total)
T1094 007:800 JLINK_ReadMem (0x40012C18, 0x0014 Bytes, ...) -- CPU is running -- CPU_ReadMem(20 bytes @ 0x40012C18) - Data: 68 68 00 00 68 00 00 00 55 05 00 00 15 00 00 00 ...  returns 0x00 (0000ms, 0704ms total)
T1094 007:800 JLINK_ReadMem (0x40012C2C, 0x0004 Bytes, ...) -- CPU is running -- CPU_ReadMem(4 bytes @ 0x40012C2C) - Data: CF 07 00 00  returns 0x00 (0001ms, 0705ms total)
T1094 007:801 JLINK_ReadMem (0x40012C30, 0x0004 Bytes, ...) -- CPU is running -- CPU_ReadMem(4 bytes @ 0x40012C30) - Data: 00 00 00 00  returns 0x00 (0001ms, 0706ms total)
T1094 007:802 JLINK_ReadMem (0x40012C34, 0x000C Bytes, ...) -- CPU is running -- CPU_ReadMem(12 bytes @ 0x40012C34) - Data: E8 03 00 00 E8 03 00 00 E8 03 00 00  returns 0x00 (0000ms, 0706ms total)
T1094 007:802 JLINK_ReadMem (0x40012C40, 0x0004 Bytes, ...) -- CPU is running -- CPU_ReadMem(4 bytes @ 0x40012C40) - Data: 00 00 00 00  returns 0x00 (0001ms, 0707ms total)
T1094 007:803 JLINK_ReadMem (0x40012C44, 0x0004 Bytes, ...) -- CPU is running -- CPU_ReadMem(4 bytes @ 0x40012C44) - Data: 28 C0 00 00  returns 0x00 (0000ms, 0707ms total)
T1094 007:803 JLINK_ReadMem (0x40012C48, 0x0004 Bytes, ...) -- CPU is running -- CPU_ReadMem(4 bytes @ 0x40012C48) - Data: 00 00 00 00  returns 0x00 (0001ms, 0708ms total)
T1094 007:804 JLINK_ReadMem (0x40012C4C, 0x0004 Bytes, ...) -- CPU is running -- CPU_ReadMem(4 bytes @ 0x40012C4C) - Data: 81 00 00 00  returns 0x00 (0001ms, 0709ms total)
T22EC 007:805 JLINK_IsHalted()  returns FALSE (0000ms, 0709ms total)
T22EC 007:906 JLINK_IsHalted()  returns FALSE (0000ms, 0709ms total)
T22EC 008:007 JLINK_IsHalted()  returns FALSE (0000ms, 0709ms total)
T22EC 008:108 JLINK_IsHalted()  returns FALSE (0000ms, 0709ms total)
T22EC 008:208 JLINK_IsHalted()  returns FALSE (0001ms, 0710ms total)
T22EC 008:309 JLINK_IsHalted()  returns FALSE (0001ms, 0710ms total)
T22EC 008:410 JLINK_ReadMemU32(0xE0001004, 0x0001 Items, ...) -- CPU is running -- CPU_ReadMem(4 bytes @ 0xE0001004) - Data: B4 29 1E 19  returns 0x01 (0000ms, 0709ms total)
T1094 008:412 JLINK_ReadMem (0x40012C00, 0x0010 Bytes, ...) -- CPU is running -- CPU_ReadMem(16 bytes @ 0x40012C00) - Data: 81 00 00 00 00 00 00 00 00 00 00 00 00 00 00 00  returns 0x00 (0000ms, 0709ms total)
T1094 008:412 JLINK_ReadMem (0x40012C10, 0x0004 Bytes, ...) -- CPU is running -- CPU_ReadMem(4 bytes @ 0x40012C10) - Data: 1F 00 00 00  returns 0x00 (0001ms, 0710ms total)
T1094 008:413 JLINK_ReadMem (0x40012C18, 0x0014 Bytes, ...) -- CPU is running -- CPU_ReadMem(20 bytes @ 0x40012C18) - Data: 68 68 00 00 68 00 00 00 55 05 00 00 B8 02 00 00 ...  returns 0x00 (0001ms, 0711ms total)
T1094 008:414 JLINK_ReadMem (0x40012C2C, 0x0004 Bytes, ...) -- CPU is running -- CPU_ReadMem(4 bytes @ 0x40012C2C) - Data: CF 07 00 00  returns 0x00 (0000ms, 0711ms total)
T1094 008:414 JLINK_ReadMem (0x40012C30, 0x0004 Bytes, ...) -- CPU is running -- CPU_ReadMem(4 bytes @ 0x40012C30) - Data: 00 00 00 00  returns 0x00 (0001ms, 0712ms total)
T1094 008:415 JLINK_ReadMem (0x40012C34, 0x000C Bytes, ...) -- CPU is running -- CPU_ReadMem(12 bytes @ 0x40012C34) - Data: E8 03 00 00 E8 03 00 00 E8 03 00 00  returns 0x00 (0000ms, 0712ms total)
T1094 008:415 JLINK_ReadMem (0x40012C40, 0x0004 Bytes, ...) -- CPU is running -- CPU_ReadMem(4 bytes @ 0x40012C40) - Data: 00 00 00 00  returns 0x00 (0001ms, 0713ms total)
T1094 008:416 JLINK_ReadMem (0x40012C44, 0x0004 Bytes, ...) -- CPU is running -- CPU_ReadMem(4 bytes @ 0x40012C44) - Data: 28 C0 00 00  returns 0x00 (0000ms, 0713ms total)
T1094 008:416 JLINK_ReadMem (0x40012C48, 0x0004 Bytes, ...) -- CPU is running -- CPU_ReadMem(4 bytes @ 0x40012C48) - Data: 00 00 00 00  returns 0x00 (0001ms, 0714ms total)
T1094 008:417 JLINK_ReadMem (0x40012C4C, 0x0004 Bytes, ...) -- CPU is running -- CPU_ReadMem(4 bytes @ 0x40012C4C) - Data: 81 00 00 00  returns 0x00 (0000ms, 0714ms total)
T22EC 008:418 JLINK_IsHalted()  returns FALSE (0000ms, 0714ms total)
T22EC 008:519 JLINK_IsHalted()  returns FALSE (0000ms, 0714ms total)
T22EC 008:620 JLINK_IsHalted()  returns FALSE (0000ms, 0714ms total)
T22EC 008:721 JLINK_IsHalted()  returns FALSE (0001ms, 0715ms total)
T22EC 008:823 JLINK_IsHalted()  returns FALSE (0000ms, 0714ms total)
T22EC 008:924 JLINK_ReadMemU32(0xE0001004, 0x0001 Items, ...) -- CPU is running -- CPU_ReadMem(4 bytes @ 0xE0001004) - Data: D0 6C 53 1B  returns 0x01 (0000ms, 0714ms total)
T1094 008:927 JLINK_ReadMem (0x40012C00, 0x0010 Bytes, ...) -- CPU is running -- CPU_ReadMem(16 bytes @ 0x40012C00) - Data: 81 00 00 00 00 00 00 00 00 00 00 00 00 00 00 00  returns 0x00 (0001ms, 0715ms total)
T1094 008:928 JLINK_ReadMem (0x40012C10, 0x0004 Bytes, ...) -- CPU is running -- CPU_ReadMem(4 bytes @ 0x40012C10) - Data: 1F 00 00 00  returns 0x00 (0000ms, 0715ms total)
T1094 008:928 JLINK_ReadMem (0x40012C18, 0x0014 Bytes, ...) -- CPU is running -- CPU_ReadMem(20 bytes @ 0x40012C18) - Data: 68 68 00 00 68 00 00 00 55 05 00 00 7B 01 00 00 ...  returns 0x00 (0001ms, 0716ms total)
T1094 008:929 JLINK_ReadMem (0x40012C2C, 0x0004 Bytes, ...) -- CPU is running -- CPU_ReadMem(4 bytes @ 0x40012C2C) - Data: CF 07 00 00  returns 0x00 (0001ms, 0717ms total)
T1094 008:930 JLINK_ReadMem (0x40012C30, 0x0004 Bytes, ...) -- CPU is running -- CPU_ReadMem(4 bytes @ 0x40012C30) - Data: 00 00 00 00  returns 0x00 (0000ms, 0717ms total)
T1094 008:930 JLINK_ReadMem (0x40012C34, 0x000C Bytes, ...) -- CPU is running -- CPU_ReadMem(12 bytes @ 0x40012C34) - Data: E8 03 00 00 E8 03 00 00 E8 03 00 00  returns 0x00 (0001ms, 0718ms total)
T1094 008:931 JLINK_ReadMem (0x40012C40, 0x0004 Bytes, ...) -- CPU is running -- CPU_ReadMem(4 bytes @ 0x40012C40) - Data: 00 00 00 00  returns 0x00 (0000ms, 0718ms total)
T1094 008:931 JLINK_ReadMem (0x40012C44, 0x0004 Bytes, ...) -- CPU is running -- CPU_ReadMem(4 bytes @ 0x40012C44) - Data: 28 C0 00 00  returns 0x00 (0001ms, 0719ms total)
T1094 008:932 JLINK_ReadMem (0x40012C48, 0x0004 Bytes, ...) -- CPU is running -- CPU_ReadMem(4 bytes @ 0x40012C48) - Data: 00 00 00 00  returns 0x00 (0000ms, 0719ms total)
T1094 008:932 JLINK_ReadMem (0x40012C4C, 0x0004 Bytes, ...) -- CPU is running -- CPU_ReadMem(4 bytes @ 0x40012C4C) - Data: 81 00 00 00  returns 0x00 (0001ms, 0720ms total)
T22EC 008:933 JLINK_IsHalted()  returns FALSE (0000ms, 0720ms total)
T22EC 009:034 JLINK_IsHalted()  returns FALSE (0000ms, 0720ms total)
T22EC 009:135 JLINK_IsHalted()  returns FALSE (0000ms, 0720ms total)
T22EC 009:236 JLINK_IsHalted()  returns FALSE (0000ms, 0720ms total)
T22EC 009:337 JLINK_IsHalted()  returns FALSE (0000ms, 0720ms total)
T22EC 009:439 JLINK_ReadMemU32(0xE0001004, 0x0001 Items, ...) -- CPU is running -- CPU_ReadMem(4 bytes @ 0xE0001004) - Data: 57 85 88 1D  returns 0x01 (0000ms, 0720ms total)
T1094 009:440 JLINK_ReadMem (0x40012C00, 0x0010 Bytes, ...) -- CPU is running -- CPU_ReadMem(16 bytes @ 0x40012C00) - Data: 81 00 00 00 00 00 00 00 00 00 00 00 00 00 00 00  returns 0x00 (0001ms, 0721ms total)
T1094 009:441 JLINK_ReadMem (0x40012C10, 0x0004 Bytes, ...) -- CPU is running -- CPU_ReadMem(4 bytes @ 0x40012C10) - Data: 1F 00 00 00  returns 0x00 (0001ms, 0722ms total)
T1094 009:442 JLINK_ReadMem (0x40012C18, 0x0014 Bytes, ...) -- CPU is running -- CPU_ReadMem(20 bytes @ 0x40012C18) - Data: 68 68 00 00 68 00 00 00 55 05 00 00 BA 07 00 00 ...  returns 0x00 (0001ms, 0723ms total)
T1094 009:443 JLINK_ReadMem (0x40012C2C, 0x0004 Bytes, ...) -- CPU is running -- CPU_ReadMem(4 bytes @ 0x40012C2C) - Data: CF 07 00 00  returns 0x00 (0001ms, 0724ms total)
T1094 009:444 JLINK_ReadMem (0x40012C30, 0x0004 Bytes, ...) -- CPU is running -- CPU_ReadMem(4 bytes @ 0x40012C30) - Data: 00 00 00 00  returns 0x00 (0000ms, 0724ms total)
T1094 009:444 JLINK_ReadMem (0x40012C34, 0x000C Bytes, ...) -- CPU is running -- CPU_ReadMem(12 bytes @ 0x40012C34) - Data: E8 03 00 00 E8 03 00 00 E8 03 00 00  returns 0x00 (0001ms, 0725ms total)
T1094 009:445 JLINK_ReadMem (0x40012C40, 0x0004 Bytes, ...) -- CPU is running -- CPU_ReadMem(4 bytes @ 0x40012C40) - Data: 00 00 00 00  returns 0x00 (0000ms, 0725ms total)
T1094 009:445 JLINK_ReadMem (0x40012C44, 0x0004 Bytes, ...) -- CPU is running -- CPU_ReadMem(4 bytes @ 0x40012C44) - Data: 28 C0 00 00  returns 0x00 (0001ms, 0726ms total)
T1094 009:446 JLINK_ReadMem (0x40012C48, 0x0004 Bytes, ...) -- CPU is running -- CPU_ReadMem(4 bytes @ 0x40012C48) - Data: 00 00 00 00  returns 0x00 (0000ms, 0726ms total)
T1094 009:446 JLINK_ReadMem (0x40012C4C, 0x0004 Bytes, ...) -- CPU is running -- CPU_ReadMem(4 bytes @ 0x40012C4C) - Data: 81 00 00 00  returns 0x00 (0001ms, 0727ms total)
T22EC 009:447 JLINK_IsHalted()  returns FALSE (0001ms, 0728ms total)
T22EC 009:549 JLINK_IsHalted()  returns FALSE (0000ms, 0727ms total)
T22EC 009:649 JLINK_IsHalted()  returns FALSE (0001ms, 0728ms total)
T22EC 009:750 JLINK_IsHalted()  returns FALSE (0001ms, 0728ms total)
T22EC 009:852 JLINK_IsHalted()  returns FALSE (0000ms, 0727ms total)
T22EC 009:953 JLINK_ReadMemU32(0xE0001004, 0x0001 Items, ...) -- CPU is running -- CPU_ReadMem(4 bytes @ 0xE0001004) - Data: D6 2F BD 1F  returns 0x01 (0000ms, 0727ms total)
T1094 009:954 JLINK_ReadMem (0x40012C00, 0x0010 Bytes, ...) -- CPU is running -- CPU_ReadMem(16 bytes @ 0x40012C00) - Data: 81 00 00 00 00 00 00 00 00 00 00 00 00 00 00 00  returns 0x00 (0001ms, 0728ms total)
T1094 009:955 JLINK_ReadMem (0x40012C10, 0x0004 Bytes, ...) -- CPU is running -- CPU_ReadMem(4 bytes @ 0x40012C10) - Data: 1F 00 00 00  returns 0x00 (0001ms, 0729ms total)
T1094 009:956 JLINK_ReadMem (0x40012C18, 0x0014 Bytes, ...) -- CPU is running -- CPU_ReadMem(20 bytes @ 0x40012C18) - Data: 68 68 00 00 68 00 00 00 55 05 00 00 C8 05 00 00 ...  returns 0x00 (0000ms, 0729ms total)
T1094 009:957 JLINK_ReadMem (0x40012C2C, 0x0004 Bytes, ...) -- CPU is running -- CPU_ReadMem(4 bytes @ 0x40012C2C) - Data: CF 07 00 00  returns 0x00 (0000ms, 0730ms total)
T1094 009:957 JLINK_ReadMem (0x40012C30, 0x0004 Bytes, ...) -- CPU is running -- CPU_ReadMem(4 bytes @ 0x40012C30) - Data: 00 00 00 00  returns 0x00 (0001ms, 0731ms total)
T1094 009:958 JLINK_ReadMem (0x40012C34, 0x000C Bytes, ...) -- CPU is running -- CPU_ReadMem(12 bytes @ 0x40012C34) - Data: E8 03 00 00 E8 03 00 00 E8 03 00 00  returns 0x00 (0000ms, 0731ms total)
T1094 009:958 JLINK_ReadMem (0x40012C40, 0x0004 Bytes, ...) -- CPU is running -- CPU_ReadMem(4 bytes @ 0x40012C40) - Data: 00 00 00 00  returns 0x00 (0001ms, 0732ms total)
